"b:tnow in s";"s:Vac_ist";"s:id_ref";"s:iq_ref"
0.000000;1.002411;0.498797;-0.498797
0.001000;1.002411;0.498797;-0.498797
0.002000;1.002411;0.498797;-0.498797
0.003000;1.002411;0.498797;-0.498797
0.004000;1.002411;0.498797;-0.498797
0.005000;1.002411;0.498797;-0.498797
0.006000;1.002411;0.498797;-0.498797
0.007000;1.002411;0.498797;-0.498797
0.008000;1.002411;0.498797;-0.498797
0.009000;1.002411;0.498797;-0.498797
0.010000;1.002411;0.498797;-0.498797
0.011000;1.002411;0.498797;-0.498797
0.012000;1.002411;0.498797;-0.498797
0.013000;1.002411;0.498797;-0.498797
0.014000;1.002411;0.498797;-0.498797
0.015000;1.002411;0.498797;-0.498797
0.016000;1.002411;0.498797;-0.498797
0.017000;1.002411;0.498797;-0.498797
0.018000;1.002411;0.498797;-0.498797
0.019000;1.002411;0.498797;-0.498797
0.020000;1.002411;0.498797;-0.498797
0.021000;1.002411;0.498797;-0.498797
0.022000;1.002411;0.498797;-0.498797
0.023000;1.002411;0.498797;-0.498797
0.024000;1.002411;0.498797;-0.498797
0.025000;1.002411;0.498797;-0.498797
0.026000;1.002411;0.498797;-0.498797
0.027000;1.002411;0.498797;-0.498797
0.028000;1.002411;0.498797;-0.498797
0.029000;1.002411;0.498797;-0.498797
0.030000;1.002411;0.498797;-0.498797
0.031000;1.002411;0.498797;-0.498797
0.032000;1.002411;0.498797;-0.498797
0.033000;1.002411;0.498797;-0.498797
0.034000;1.002411;0.498797;-0.498797
0.035000;1.002411;0.498797;-0.498797
0.036000;1.002411;0.498797;-0.498797
0.037000;1.002411;0.498797;-0.498797
0.038000;1.002411;0.498797;-0.498797
0.039000;1.002411;0.498797;-0.498797
0.040000;1.002411;0.498797;-0.498797
0.041000;1.002411;0.498797;-0.498797
0.042000;1.002411;0.498797;-0.498797
0.043000;1.002411;0.498797;-0.498797
0.044000;1.002411;0.498797;-0.498797
0.045000;1.002411;0.498797;-0.498797
0.046000;1.002411;0.498797;-0.498797
0.047000;1.002411;0.498797;-0.498797
0.048000;1.002411;0.498797;-0.498797
0.049000;1.002411;0.498797;-0.498797
0.050000;1.002411;0.498797;-0.498797
0.051000;1.002411;0.498797;-0.498797
0.052000;1.002411;0.498797;-0.498797
0.053000;1.002411;0.498797;-0.498797
0.054000;1.002411;0.498797;-0.498797
0.055000;1.002411;0.498797;-0.498797
0.056000;1.002411;0.498797;-0.498797
0.057000;1.002411;0.498797;-0.498797
0.058000;1.002411;0.498797;-0.498797
0.059000;1.002411;0.498797;-0.498797
0.060000;1.002411;0.498797;-0.498797
0.061000;1.002411;0.498797;-0.498797
0.062000;1.002411;0.498797;-0.498797
0.063000;1.002411;0.498797;-0.498797
0.064000;1.002411;0.498797;-0.498797
0.065000;1.002411;0.498797;-0.498797
0.066000;1.002411;0.498797;-0.498797
0.067000;1.002411;0.498797;-0.498797
0.068000;1.002411;0.498797;-0.498797
0.069000;1.002411;0.498797;-0.498797
0.070000;1.002411;0.498797;-0.498797
0.071000;1.002411;0.498797;-0.498797
0.072000;1.002411;0.498797;-0.498797
0.073000;1.002411;0.498797;-0.498797
0.074000;1.002411;0.498797;-0.498797
0.075000;1.002411;0.498797;-0.498797
0.076000;1.002411;0.498797;-0.498797
0.077000;1.002411;0.498797;-0.498797
0.078000;1.002411;0.498797;-0.498797
0.079000;1.002411;0.498797;-0.498797
0.080000;1.002411;0.498797;-0.498797
0.081000;1.002411;0.498797;-0.498797
0.082000;1.002411;0.498797;-0.498797
0.083000;1.002411;0.498797;-0.498797
0.084000;1.002411;0.498797;-0.498797
0.085000;1.002411;0.498797;-0.498797
0.086000;1.002411;0.498797;-0.498797
0.087000;1.002411;0.498797;-0.498797
0.088000;1.002411;0.498797;-0.498797
0.089000;1.002411;0.498797;-0.498797
0.090000;1.002411;0.498797;-0.498797
0.091000;1.002411;0.498797;-0.498797
0.092000;1.002411;0.498797;-0.498797
0.093000;1.002411;0.498797;-0.498797
0.094000;1.002411;0.498797;-0.498797
0.095000;1.002411;0.498797;-0.498797
0.096000;1.002411;0.498797;-0.498797
0.097000;1.002411;0.498797;-0.498797
0.098000;1.002411;0.498797;-0.498797
0.099000;1.002411;0.498797;-0.498797
0.100000;1.002411;0.498797;-0.498797
0.101000;1.002411;0.498797;-0.498797
0.102000;1.002411;0.498797;-0.498797
0.103000;1.002411;0.498797;-0.498797
0.104000;1.002411;0.498797;-0.498797
0.105000;1.002411;0.498797;-0.498797
0.106000;1.002411;0.498797;-0.498797
0.107000;1.002411;0.498797;-0.498797
0.108000;1.002411;0.498797;-0.498797
0.109000;1.002411;0.498797;-0.498797
0.110000;1.002411;0.498797;-0.498797
0.111000;1.002411;0.498797;-0.498797
0.112000;1.002411;0.498797;-0.498797
0.113000;1.002411;0.498797;-0.498797
0.114000;1.002411;0.498797;-0.498797
0.115000;1.002411;0.498797;-0.498797
0.116000;1.002411;0.498797;-0.498797
0.117000;1.002411;0.498797;-0.498797
0.118000;1.002411;0.498797;-0.498797
0.119000;1.002411;0.498797;-0.498797
0.120000;1.002411;0.498797;-0.498797
0.121000;1.002411;0.498797;-0.498797
0.122000;1.002411;0.498797;-0.498797
0.123000;1.002411;0.498797;-0.498797
0.124000;1.002411;0.498797;-0.498797
0.125000;1.002411;0.498797;-0.498797
0.126000;1.002411;0.498797;-0.498797
0.127000;1.002411;0.498797;-0.498797
0.128000;1.002411;0.498797;-0.498797
0.129000;1.002411;0.498797;-0.498797
0.130000;1.002411;0.498797;-0.498797
0.131000;1.002411;0.498797;-0.498797
0.132000;1.002411;0.498797;-0.498797
0.133000;1.002411;0.498797;-0.498797
0.134000;1.002411;0.498797;-0.498797
0.135000;1.002411;0.498797;-0.498797
0.136000;1.002411;0.498797;-0.498797
0.137000;1.002411;0.498797;-0.498797
0.138000;1.002411;0.498797;-0.498797
0.139000;1.002411;0.498797;-0.498797
0.140000;1.002411;0.498797;-0.498797
0.141000;1.002411;0.498797;-0.498797
0.142000;1.002411;0.498797;-0.498797
0.143000;1.002411;0.498797;-0.498797
0.144000;1.002411;0.498797;-0.498797
0.145000;1.002411;0.498797;-0.498797
0.146000;1.002411;0.498797;-0.498797
0.147000;1.002411;0.498797;-0.498797
0.148000;1.002411;0.498797;-0.498797
0.149000;1.002411;0.498797;-0.498797
0.150000;1.002411;0.498797;-0.498797
0.151000;1.002411;0.498797;-0.498797
0.152000;1.002411;0.498797;-0.498797
0.153000;1.002411;0.498797;-0.498797
0.154000;1.002411;0.498797;-0.498797
0.155000;1.002411;0.498797;-0.498797
0.156000;1.002411;0.498797;-0.498797
0.157000;1.002411;0.498797;-0.498797
0.158000;1.002411;0.498797;-0.498797
0.159000;1.002411;0.498797;-0.498797
0.160000;1.002411;0.498797;-0.498797
0.161000;1.002411;0.498797;-0.498797
0.162000;1.002411;0.498797;-0.498797
0.163000;1.002411;0.498797;-0.498797
0.164000;1.002411;0.498797;-0.498797
0.165000;1.002411;0.498797;-0.498797
0.166000;1.002411;0.498797;-0.498797
0.167000;1.002411;0.498797;-0.498797
0.168000;1.002411;0.498797;-0.498797
0.169000;1.002411;0.498797;-0.498797
0.170000;1.002411;0.498797;-0.498797
0.171000;1.002411;0.498797;-0.498797
0.172000;1.002411;0.498797;-0.498797
0.173000;1.002411;0.498797;-0.498797
0.174000;1.002411;0.498797;-0.498797
0.175000;1.002411;0.498797;-0.498797
0.176000;1.002411;0.498797;-0.498797
0.177000;1.002411;0.498797;-0.498797
0.178000;1.002411;0.498797;-0.498797
0.179000;1.002411;0.498797;-0.498797
0.180000;1.002411;0.498797;-0.498797
0.181000;1.002411;0.498797;-0.498797
0.182000;1.002411;0.498797;-0.498797
0.183000;1.002411;0.498797;-0.498797
0.184000;1.002411;0.498797;-0.498797
0.185000;1.002411;0.498797;-0.498797
0.186000;1.002411;0.498797;-0.498797
0.187000;1.002411;0.498797;-0.498797
0.188000;1.002411;0.498797;-0.498797
0.189000;1.002411;0.498797;-0.498797
0.190000;1.002411;0.498797;-0.498797
0.191000;1.002411;0.498797;-0.498797
0.192000;1.002411;0.498797;-0.498797
0.193000;1.002411;0.498797;-0.498797
0.194000;1.002411;0.498797;-0.498797
0.195000;1.002411;0.498797;-0.498797
0.196000;1.002411;0.498797;-0.498797
0.197000;1.002411;0.498797;-0.498797
0.198000;1.002411;0.498797;-0.498797
0.199000;1.002411;0.498797;-0.498797
0.200000;1.002411;0.498797;-0.498797
0.201000;1.002411;0.498797;-0.498797
0.202000;1.002411;0.498797;-0.498797
0.203000;1.002411;0.498797;-0.498797
0.204000;1.002411;0.498797;-0.498797
0.205000;1.002411;0.498797;-0.498797
0.206000;1.002411;0.498797;-0.498797
0.207000;1.002411;0.498797;-0.498797
0.208000;1.002411;0.498797;-0.498797
0.209000;1.002411;0.498797;-0.498797
0.210000;1.002411;0.498797;-0.498797
0.211000;1.002411;0.498797;-0.498797
0.212000;1.002411;0.498797;-0.498797
0.213000;1.002411;0.498797;-0.498797
0.214000;1.002411;0.498797;-0.498797
0.215000;1.002411;0.498797;-0.498797
0.216000;1.002411;0.498797;-0.498797
0.217000;1.002411;0.498797;-0.498797
0.218000;1.002411;0.498797;-0.498797
0.219000;1.002411;0.498797;-0.498797
0.220000;1.002411;0.498797;-0.498797
0.221000;1.002411;0.498797;-0.498797
0.222000;1.002411;0.498797;-0.498797
0.223000;1.002411;0.498797;-0.498797
0.224000;1.002411;0.498797;-0.498797
0.225000;1.002411;0.498797;-0.498797
0.226000;1.002411;0.498797;-0.498797
0.227000;1.002411;0.498797;-0.498797
0.228000;1.002411;0.498797;-0.498797
0.229000;1.002411;0.498797;-0.498797
0.230000;1.002411;0.498797;-0.498797
0.231000;1.002411;0.498797;-0.498797
0.232000;1.002411;0.498797;-0.498797
0.233000;1.002411;0.498797;-0.498797
0.234000;1.002411;0.498797;-0.498797
0.235000;1.002411;0.498797;-0.498797
0.236000;1.002411;0.498797;-0.498797
0.237000;1.002411;0.498797;-0.498797
0.238000;1.002411;0.498797;-0.498797
0.239000;1.002411;0.498797;-0.498797
0.240000;1.002411;0.498797;-0.498797
0.241000;1.002411;0.498797;-0.498797
0.242000;1.002411;0.498797;-0.498797
0.243000;1.002411;0.498797;-0.498797
0.244000;1.002411;0.498797;-0.498797
0.245000;1.002411;0.498797;-0.498797
0.246000;1.002411;0.498797;-0.498797
0.247000;1.002411;0.498797;-0.498797
0.248000;1.002411;0.498797;-0.498797
0.249000;1.002411;0.498797;-0.498797
0.250000;1.002411;0.498797;-0.498797
0.251000;1.002411;0.498797;-0.498797
0.252000;1.002411;0.498797;-0.498797
0.253000;1.002411;0.498797;-0.498797
0.254000;1.002411;0.498797;-0.498797
0.255000;1.002411;0.498797;-0.498797
0.256000;1.002411;0.498797;-0.498797
0.257000;1.002411;0.498797;-0.498797
0.258000;1.002411;0.498797;-0.498797
0.259000;1.002411;0.498797;-0.498797
0.260000;1.002411;0.498797;-0.498797
0.261000;1.002411;0.498797;-0.498797
0.262000;1.002411;0.498797;-0.498797
0.263000;1.002411;0.498797;-0.498797
0.264000;1.002411;0.498797;-0.498797
0.265000;1.002411;0.498797;-0.498797
0.266000;1.002411;0.498797;-0.498797
0.267000;1.002411;0.498797;-0.498797
0.268000;1.002411;0.498797;-0.498797
0.269000;1.002411;0.498797;-0.498797
0.270000;1.002411;0.498797;-0.498797
0.271000;1.002411;0.498797;-0.498797
0.272000;1.002411;0.498797;-0.498797
0.273000;1.002411;0.498797;-0.498797
0.274000;1.002411;0.498797;-0.498797
0.275000;1.002411;0.498797;-0.498797
0.276000;1.002411;0.498797;-0.498797
0.277000;1.002411;0.498797;-0.498797
0.278000;1.002411;0.498797;-0.498797
0.279000;1.002411;0.498797;-0.498797
0.280000;1.002411;0.498797;-0.498797
0.281000;1.002411;0.498797;-0.498797
0.282000;1.002411;0.498797;-0.498797
0.283000;1.002411;0.498797;-0.498797
0.284000;1.002411;0.498797;-0.498797
0.285000;1.002411;0.498797;-0.498797
0.286000;1.002411;0.498797;-0.498797
0.287000;1.002411;0.498797;-0.498797
0.288000;1.002411;0.498797;-0.498797
0.289000;1.002411;0.498797;-0.498797
0.290000;1.002411;0.498797;-0.498797
0.291000;1.002411;0.498797;-0.498797
0.292000;1.002411;0.498797;-0.498797
0.293000;1.002411;0.498797;-0.498797
0.294000;1.002411;0.498797;-0.498797
0.295000;1.002411;0.498797;-0.498797
0.296000;1.002411;0.498797;-0.498797
0.297000;1.002411;0.498797;-0.498797
0.298000;1.002411;0.498797;-0.498797
0.299000;1.002411;0.498797;-0.498797
0.300000;1.002411;0.498797;-0.498797
0.301000;1.002411;0.498797;-0.498797
0.302000;1.002411;0.498797;-0.498797
0.303000;1.002411;0.498797;-0.498797
0.304000;1.002411;0.498797;-0.498797
0.305000;1.002411;0.498797;-0.498797
0.306000;1.002411;0.498797;-0.498797
0.307000;1.002411;0.498797;-0.498797
0.308000;1.002411;0.498797;-0.498797
0.309000;1.002411;0.498797;-0.498797
0.310000;1.002411;0.498797;-0.498797
0.311000;1.002411;0.498797;-0.498797
0.312000;1.002411;0.498797;-0.498797
0.313000;1.002411;0.498797;-0.498797
0.314000;1.002411;0.498797;-0.498797
0.315000;1.002411;0.498797;-0.498797
0.316000;1.002411;0.498797;-0.498797
0.317000;1.002411;0.498797;-0.498797
0.318000;1.002411;0.498797;-0.498797
0.319000;1.002411;0.498797;-0.498797
0.320000;1.002411;0.498797;-0.498797
0.321000;1.002411;0.498797;-0.498797
0.322000;1.002411;0.498797;-0.498797
0.323000;1.002411;0.498797;-0.498797
0.324000;1.002411;0.498797;-0.498797
0.325000;1.002411;0.498797;-0.498797
0.326000;1.002411;0.498797;-0.498797
0.327000;1.002411;0.498797;-0.498797
0.328000;1.002411;0.498797;-0.498797
0.329000;1.002411;0.498797;-0.498797
0.330000;1.002411;0.498797;-0.498797
0.331000;1.002411;0.498797;-0.498797
0.332000;1.002411;0.498797;-0.498797
0.333000;1.002411;0.498797;-0.498797
0.334000;1.002411;0.498797;-0.498797
0.335000;1.002411;0.498797;-0.498797
0.336000;1.002411;0.498797;-0.498797
0.337000;1.002411;0.498797;-0.498797
0.338000;1.002411;0.498797;-0.498797
0.339000;1.002411;0.498797;-0.498797
0.340000;1.002411;0.498797;-0.498797
0.341000;1.002411;0.498797;-0.498797
0.342000;1.002411;0.498797;-0.498797
0.343000;1.002411;0.498797;-0.498797
0.344000;1.002411;0.498797;-0.498797
0.345000;1.002411;0.498797;-0.498797
0.346000;1.002411;0.498797;-0.498797
0.347000;1.002411;0.498797;-0.498797
0.348000;1.002411;0.498797;-0.498797
0.349000;1.002411;0.498797;-0.498797
0.350000;1.002411;0.498797;-0.498797
0.351000;1.002411;0.498797;-0.498797
0.352000;1.002411;0.498797;-0.498797
0.353000;1.002411;0.498797;-0.498797
0.354000;1.002411;0.498797;-0.498797
0.355000;1.002411;0.498797;-0.498797
0.356000;1.002411;0.498797;-0.498797
0.357000;1.002411;0.498797;-0.498797
0.358000;1.002411;0.498797;-0.498797
0.359000;1.002411;0.498797;-0.498797
0.360000;1.002411;0.498797;-0.498797
0.361000;1.002411;0.498797;-0.498797
0.362000;1.002411;0.498797;-0.498797
0.363000;1.002411;0.498797;-0.498797
0.364000;1.002411;0.498797;-0.498797
0.365000;1.002411;0.498797;-0.498797
0.366000;1.002411;0.498797;-0.498797
0.367000;1.002411;0.498797;-0.498797
0.368000;1.002411;0.498797;-0.498797
0.369000;1.002411;0.498797;-0.498797
0.370000;1.002411;0.498797;-0.498797
0.371000;1.002411;0.498797;-0.498797
0.372000;1.002411;0.498797;-0.498797
0.373000;1.002411;0.498797;-0.498797
0.374000;1.002411;0.498797;-0.498797
0.375000;1.002411;0.498797;-0.498797
0.376000;1.002411;0.498797;-0.498797
0.377000;1.002411;0.498797;-0.498797
0.378000;1.002411;0.498797;-0.498797
0.379000;1.002411;0.498797;-0.498797
0.380000;1.002411;0.498797;-0.498797
0.381000;1.002411;0.498797;-0.498797
0.382000;1.002411;0.498797;-0.498797
0.383000;1.002411;0.498797;-0.498797
0.384000;1.002411;0.498797;-0.498797
0.385000;1.002411;0.498797;-0.498797
0.386000;1.002411;0.498797;-0.498797
0.387000;1.002411;0.498797;-0.498797
0.388000;1.002411;0.498797;-0.498797
0.389000;1.002411;0.498797;-0.498797
0.390000;1.002411;0.498797;-0.498797
0.391000;1.002411;0.498797;-0.498797
0.392000;1.002411;0.498797;-0.498797
0.393000;1.002411;0.498797;-0.498797
0.394000;1.002411;0.498797;-0.498797
0.395000;1.002411;0.498797;-0.498797
0.396000;1.002411;0.498797;-0.498797
0.397000;1.002411;0.498797;-0.498797
0.398000;1.002411;0.498797;-0.498797
0.399000;1.002411;0.498797;-0.498797
0.400000;1.002411;0.498797;-0.498797
0.401000;1.002411;0.498797;-0.498797
0.402000;1.002411;0.498797;-0.498797
0.403000;1.002411;0.498797;-0.498797
0.404000;1.002411;0.498797;-0.498797
0.405000;1.002411;0.498797;-0.498797
0.406000;1.002411;0.498797;-0.498797
0.407000;1.002411;0.498797;-0.498797
0.408000;1.002411;0.498797;-0.498797
0.409000;1.002411;0.498797;-0.498797
0.410000;1.002411;0.498797;-0.498797
0.411000;1.002411;0.498797;-0.498797
0.412000;1.002411;0.498797;-0.498797
0.413000;1.002411;0.498797;-0.498797
0.414000;1.002411;0.498797;-0.498797
0.415000;1.002411;0.498797;-0.498797
0.416000;1.002411;0.498797;-0.498797
0.417000;1.002411;0.498797;-0.498797
0.418000;1.002411;0.498797;-0.498797
0.419000;1.002411;0.498797;-0.498797
0.420000;1.002411;0.498797;-0.498797
0.421000;1.002411;0.498797;-0.498797
0.422000;1.002411;0.498797;-0.498797
0.423000;1.002411;0.498797;-0.498797
0.424000;1.002411;0.498797;-0.498797
0.425000;1.002411;0.498797;-0.498797
0.426000;1.002411;0.498797;-0.498797
0.427000;1.002411;0.498797;-0.498797
0.428000;1.002411;0.498797;-0.498797
0.429000;1.002411;0.498797;-0.498797
0.430000;1.002411;0.498797;-0.498797
0.431000;1.002411;0.498797;-0.498797
0.432000;1.002411;0.498797;-0.498797
0.433000;1.002411;0.498797;-0.498797
0.434000;1.002411;0.498797;-0.498797
0.435000;1.002411;0.498797;-0.498797
0.436000;1.002411;0.498797;-0.498797
0.437000;1.002411;0.498797;-0.498797
0.438000;1.002411;0.498797;-0.498797
0.439000;1.002411;0.498797;-0.498797
0.440000;1.002411;0.498797;-0.498797
0.441000;1.002411;0.498797;-0.498797
0.442000;1.002411;0.498797;-0.498797
0.443000;1.002411;0.498797;-0.498797
0.444000;1.002411;0.498797;-0.498797
0.445000;1.002411;0.498797;-0.498797
0.446000;1.002411;0.498797;-0.498797
0.447000;1.002411;0.498797;-0.498797
0.448000;1.002411;0.498797;-0.498797
0.449000;1.002411;0.498797;-0.498797
0.450000;1.002411;0.498797;-0.498797
0.451000;1.002411;0.498797;-0.498797
0.452000;1.002411;0.498797;-0.498797
0.453000;1.002411;0.498797;-0.498797
0.454000;1.002411;0.498797;-0.498797
0.455000;1.002411;0.498797;-0.498797
0.456000;1.002411;0.498797;-0.498797
0.457000;1.002411;0.498797;-0.498797
0.458000;1.002411;0.498797;-0.498797
0.459000;1.002411;0.498797;-0.498797
0.460000;1.002411;0.498797;-0.498797
0.461000;1.002411;0.498797;-0.498797
0.462000;1.002411;0.498797;-0.498797
0.463000;1.002411;0.498797;-0.498797
0.464000;1.002411;0.498797;-0.498797
0.465000;1.002411;0.498797;-0.498797
0.466000;1.002411;0.498797;-0.498797
0.467000;1.002411;0.498797;-0.498797
0.468000;1.002411;0.498797;-0.498797
0.469000;1.002411;0.498797;-0.498797
0.470000;1.002411;0.498797;-0.498797
0.471000;1.002411;0.498797;-0.498797
0.472000;1.002411;0.498797;-0.498797
0.473000;1.002411;0.498797;-0.498797
0.474000;1.002411;0.498797;-0.498797
0.475000;1.002411;0.498797;-0.498797
0.476000;1.002411;0.498797;-0.498797
0.477000;1.002411;0.498797;-0.498797
0.478000;1.002411;0.498797;-0.498797
0.479000;1.002411;0.498797;-0.498797
0.480000;1.002411;0.498797;-0.498797
0.481000;1.002411;0.498797;-0.498797
0.482000;1.002411;0.498797;-0.498797
0.483000;1.002411;0.498797;-0.498797
0.484000;1.002411;0.498797;-0.498797
0.485000;1.002411;0.498797;-0.498797
0.486000;1.002411;0.498797;-0.498797
0.487000;1.002411;0.498797;-0.498797
0.488000;1.002411;0.498797;-0.498797
0.489000;1.002411;0.498797;-0.498797
0.490000;1.002411;0.498797;-0.498797
0.491000;1.002411;0.498797;-0.498797
0.492000;1.002411;0.498797;-0.498797
0.493000;1.002411;0.498797;-0.498797
0.494000;1.002411;0.498797;-0.498797
0.495000;1.002411;0.498797;-0.498797
0.496000;1.002411;0.498797;-0.498797
0.497000;1.002411;0.498797;-0.498797
0.498000;1.002411;0.498797;-0.498797
0.499000;1.002411;0.498797;-0.498797
0.500000;1.002411;0.498797;-0.498797
0.500500;0.791827;0.530319;-0.847798
0.501167;0.793695;0.538580;-0.842574
0.502167;0.793698;0.538591;-0.842568
0.503167;0.793698;0.538591;-0.842567
0.504167;0.793698;0.538591;-0.842567
0.505167;0.793698;0.538591;-0.842567
0.506167;0.793698;0.538591;-0.842567
0.507167;0.793698;0.538591;-0.842567
0.508167;0.793698;0.538591;-0.842567
0.509167;0.793698;0.538591;-0.842567
0.510167;0.793698;0.538591;-0.842567
0.511167;0.793698;0.538591;-0.842567
0.512167;0.793698;0.538591;-0.842567
0.513167;0.793698;0.538591;-0.842567
0.514167;0.793698;0.538591;-0.842567
0.515167;0.793698;0.538591;-0.842567
0.516167;0.793698;0.538591;-0.842567
0.517167;0.793698;0.538591;-0.842567
0.518167;0.793698;0.538591;-0.842567
0.519167;0.793698;0.538591;-0.842567
0.520167;0.793698;0.538591;-0.842567
0.521167;0.793698;0.538591;-0.842567
0.522167;0.793698;0.538591;-0.842567
0.523167;0.793698;0.538591;-0.842567
0.524167;0.793698;0.538591;-0.842567
0.525167;0.793698;0.538591;-0.842567
0.526167;0.793698;0.538591;-0.842567
0.527167;0.793698;0.538591;-0.842567
0.528167;0.793698;0.538591;-0.842567
0.529167;0.793698;0.538591;-0.842567
0.530167;0.793698;0.538591;-0.842567
0.531167;0.793698;0.538591;-0.842567
0.532167;0.793698;0.538591;-0.842567
0.533167;0.793698;0.538591;-0.842567
0.534167;0.793698;0.538591;-0.842567
0.535167;0.793698;0.538591;-0.842567
0.536167;0.793698;0.538591;-0.842567
0.537167;0.793698;0.538591;-0.842567
